! [Frequency points] 0
[Version] 2.0
# Hz S RI R 5.0000000000000000e+001
[Number of Ports] 2
[Reference] 5.0000000000000000e+001 5.0000000000000000e+001
1.6000000000000000e+008 9.1760374286765178e-001 -1.7465153718718401e-001 6.9309277013426152e-002 3.5028051009627470e-001 6.9309277013426041e-002 3.5028051009627464e-001 9.1497116620840868e-001 -1.8795625388317005e-001
1.6040000000000000e+008 9.0051169255274133e-001 -2.1950702528586064e-001 9.1733049018606572e-002 3.6397857786372456e-001 9.1733049018606461e-002 3.6397857786372467e-001 8.9698180266071459e-001 -2.3351292955548647e-001
1.6080000000000000e+008 8.7991568875563386e-001 -2.6447627151106073e-001 1.1677020524312520e-001 3.7704827496858351e-001 1.1677020524312498e-001 3.7704827496858334e-001 8.7537738944604904e-001 -2.7913033435532419e-001
1.6120000000000000e+008 8.5557348327865412e-001 -3.0923647440179181e-001 1.4460606892129668e-001 3.8917335782541662e-001 1.4460606892129668e-001 3.8917335782541695e-001 8.4991141651978808e-001 -3.2447460063824152e-001
1.6160000000000000e+008 8.2725873287655904e-001 -3.5340188804666850e-001 1.7540703410779646e-001 3.9997808288708248e-001 1.7540703410779646e-001 3.9997808288708292e-001 8.2035465822655862e-001 -3.6914514803998943e-001
1.6200000000000000e+008 7.9477305967957079e-001 -3.9651834217530890e-001 2.0930869537295393e-001 4.0902183067335329e-001 2.0930869537296104e-001 4.0902183067335685e-001 7.8650764359336023e-001 -4.1267025412925307e-001
1.6240000000000000e+008 7.5796073985464574e-001 -4.3805931042111768e-001 2.4640132214462707e-001 4.1579555774172583e-001 2.4640132214462795e-001 4.1579555774172583e-001 7.4821560577727020e-001 -4.5450396024564910e-001
1.6280000000000000e+008 7.1672567116128860e-001 -4.7742444907414727e-001 2.8671325327778385e-001 4.1972100033178705e-001 2.8671325327778341e-001 4.1972100033178750e-001 7.0538525053071766e-001 -4.9402574893326134e-001
1.6320000000000000e+008 6.7104900119711353e-001 -5.1394147184308081e-001 3.3019430158165042e-001 4.2015369177853046e-001 3.3019430158164953e-001 4.2015369177853112e-001 6.5800079714596738e-001 -5.3054457818655520e-001
1.6360000000000000e+008 6.2100159534122690e-001 -5.4687126511374196e-001 3.7670655093345862e-001 4.1639045673545860e-001 3.7670655093345862e-001 4.1639045673545838e-001 6.0613019665192258e-001 -5.6330928159418359e-001
1.6400000000000000e+008 5.6672503583733946e-001 -5.7541008920591685e-001 4.2605622468330639e-001 4.0767886430843170e-001 4.2605622468330528e-001 4.0767886430843125e-001 5.4987961757020187e-001 -5.9152890308559258e-001
1.6440000000000000e+008 5.0817073635638788e-001 -5.9862558789517994e-001 4.7833802194566366e-001 3.9319542849487399e-001 4.7833802194566366e-001 3.9319542849487377e-001 4.8895651608997603e-001 -6.1441974019801426e-001
1.6480000000000000e+008 4.2671660002002776e-001 -6.0918319622275652e-001 5.5782427795907585e-001 3.6829451750821685e-001 5.5782427795907608e-001 3.6829451750821696e-001 3.9257351091973014e-001 -6.3172562225778206e-001
1.6520000000000000e+008 3.8870414687978894e-001 -6.2844043773011893e-001 5.7855273795698436e-001 3.4532366241905244e-001 5.7855273795698503e-001 3.4532366241905299e-001 3.6864344121048420e-001 -6.4041417132076373e-001
1.6560000000000000e+008 3.2301745249520020e-001 -6.3173059301647250e-001 6.3297439479572537e-001 3.0970889358162224e-001 6.3297439479572548e-001 3.0970889358162179e-001 3.0055969430789542e-001 -6.4271897974696302e-001
1.6600000000000000e+008 2.5805744469345221e-001 -6.2747187837287632e-001 6.8481050238457430e-001 2.6593227128967878e-001 6.8481050238457408e-001 2.6593227128967867e-001 2.3304620796501735e-001 -6.3718448495206292e-001
1.6640000000000000e+008 1.9403731884027742e-001 -6.1546527548230801e-001 7.3310203123547879e-001 2.1474036735364321e-001 7.3310203123547957e-001 2.1474036735364321e-001 1.6870097487286492e-001 -6.2288680151708264e-001
1.6680000000000000e+008 1.3265905919992890e-001 -5.9544691483444967e-001 7.7702002904783118e-001 1.5519155932212803e-001 7.7702002904783085e-001 1.5519155932212780e-001 1.0624767126020915e-001 -6.0072197123582649e-001
1.6720000000000000e+008 7.5124294576110279e-002 -5.6782728527480109e-001 8.1496122095354828e-001 8.8129012270611651e-002 8.1496122095354784e-001 8.8129012270611540e-002 4.8001321314077888e-002 -5.7076033384443514e-001
1.6760000000000000e+008 2.2771995168198209e-002 -5.3324240041343751e-001 8.4553458424549210e-001 1.4326391107935654e-002 8.4553458424549222e-001 1.4326391107935543e-002 -4.6940291471524610e-003 -5.3370777346127429e-001
1.6800000000000000e+008 -2.3192003154609231e-002 -4.9263361011314999e-001 8.6748683551644912e-001 -6.5121788843826245e-002 8.6748683551644823e-001 -6.5121788843826134e-002 -5.0616947077455635e-002 -4.9057483373283250e-001
1.6840000000000000e+008 -6.1777557287729906e-002 -4.4720408199333983e-001 8.7979315455704765e-001 -1.4884907678119730e-001 8.7979315455704743e-001 -1.4884907678119719e-001 -8.8771504797573897e-002 -4.4263707195841495e-001
1.6880000000000000e+008 -9.2276299909929693e-002 -3.9835275378316193e-001 8.8172599700793963e-001 -2.3528585641440680e-001 8.8172599700793786e-001 -2.3528585641440591e-001 -1.1845778929056000e-001 -3.9136630428294306e-001
1.6920000000000000e+008 -1.1430313243844747e-001 -3.4759137601900225e-001 8.7289786609898179e-001 -3.2274501482101892e-001 8.7289786609898146e-001 -3.2274501482101919e-001 -1.3931432829931414e-001 -3.3834374340090179e-001
1.6960000000000000e+008 -1.2780901519396148e-001 -2.9645431685892321e-001 8.5327445230506704e-001 -4.0951483818580492e-001 8.5327445230506782e-001 -4.0951483818580520e-001 -1.5132988845204332e-001 -2.8516586613799577e-001
1.7000000000000000e+008 -1.3306522978869489e-001 -2.4641179357238779e-001 8.2315852435309389e-001 -4.9394829323984601e-001 8.2315852435309467e-001 -4.9394829323984640e-001 -1.5482540893593522e-001 -2.3335428030807470e-001
1.7040000000000000e+008 -1.3062342721696629e-001 -1.9879594293989278e-001 7.8314906186008759e-001 -5.7453915466258487e-001 7.8314906186008737e-001 -5.7453915466258443e-001 -1.5041087452847968e-001 -1.8427934092253850e-001
1.7080000000000000e+008 -1.2125874878590120e-001 -1.5474625238250761e-001 7.3408306909169330e-001 -6.4997843109549946e-001 7.3408306909169330e-001 -6.4997843109549969e-001 -1.3892489927506252e-001 -1.3910413058197357e-001
1.7120000000000000e+008 -1.0590458522887353e-001 -1.1517725448285876e-001 6.7696870629285011e-001 -7.1918828520594880e-001 6.7696870629285222e-001 -7.1918828520595079e-001 -1.2136602550118747e-001 -9.8751551768840706e-002
1.7160000000000000e+008 -8.5587163312451697e-002 -8.0767990845670823e-002 6.1291781412133883e-001 -7.8133419371201152e-001 6.1291781412134005e-001 -7.8133419371201329e-001 -9.8824275247385129e-002 -6.3893610720851146e-002
1.7200000000000000e+008 -6.1366617691325009e-002 -5.1970329051261088e-002 5.4308396881676346e-001 -8.3581877577957275e-001 5.4308396881676313e-001 -8.3581877577957231e-001 -7.2419852295293408e-002 -3.4959145614523623e-002
1.7240000000000000e+008 -3.4289312761722868e-002 -2.9032311020387780e-002 4.6860927609629655e-001 -8.8226227070165963e-001 4.6860927609629693e-001 -8.8226227070166019e-001 -4.3253931076863872e-002 -1.2154402463868619e-002
1.7280000000000000e+008 -5.3551263466266041e-003 -1.2034202242189457e-002 3.9057878039693095e-001 -9.2047526686046921e-001 3.9057878039693089e-001 -9.2047526686046910e-001 -1.2375503447183134e-002 4.5106891073324884e-003
1.7320000000000000e+008 2.4493455330524938e-002 -9.4300305224179204e-004 3.0997117541446567e-001 -9.5042992998084264e-001 3.0997117541446562e-001 -9.5042992998084252e-001 1.9227896493650976e-002 1.5202190803118132e-002
1.7360000000000000e+008 5.4325878121272875e-002 4.2638600396691650e-003 2.2754532051433135e-001 -9.7224155721505023e-001 2.2754532051433118e-001 -9.7224155721504935e-001 5.0575672912427871e-002 2.0287504665197215e-002
1.7400000000000000e+008 8.2761444600596201e-002 2.8620178010095448e-003 1.4306491278694469e-001 -9.8624276061778682e-001 1.4306491278694469e-001 -9.8624276061778671e-001 8.0163419792521950e-002 2.0771951892847015e-002
1.7440000000000000e+008 1.3016012017330014e-001 2.9175502181218900e-002 9.3417130928607164e-002 -9.8665108971612336e-001 9.3417130928607109e-002 -9.8665108971612292e-001 1.3332286076926492e-001 -4.2286649611301338e-003
1.7480000000000000e+008 1.4230660498508924e-001 -4.2277939023174140e-003 -1.3719506396512158e-002 -9.8971851103259334e-001 -1.3719506396512149e-002 -9.8971851103259278e-001 1.4236911448399675e-001 2.8161091124349370e-004
1.7520000000000000e+008 1.6617816257770712e-001 -1.8770490011326205e-002 -9.5152642627497952e-002 -9.8131465982529553e-001 -9.5152642627497952e-002 -9.8131465982529553e-001 1.6668865426520652e-001 -1.3505759964645189e-002
1.7560000000000000e+008 1.8805855161892920e-001 -3.6259801270942485e-002 -1.7371837069427251e-001 -9.6599230621061838e-001 -1.7371837069427257e-001 -9.6599230621061882e-001 1.8890880930940729e-001 -3.1531790157232148e-002
1.7600000000000000e+008 2.0706987607083172e-001 -5.7042521690030240e-002 -2.4977284593159710e-001 -9.4418310860684385e-001 -2.4977284593159721e-001 -9.4418310860684440e-001 2.0818963789954448e-001 -5.2809634802786054e-002
1.7640000000000000e+008 2.2152054308339686e-001 -8.1839192789590232e-002 -3.2436432341795962e-001 -9.1597968384085526e-001 -3.2436432341796023e-001 -9.1597968384085693e-001 2.2365702924935943e-001 -7.5805921614118227e-002
1.7680000000000000e+008 2.4410703292485669e-001 -1.0078412181832927e-001 -3.8424963362164460e-001 -8.8465051649087001e-001 -3.8424963362164455e-001 -8.8465051649087001e-001 2.4027441616048473e-001 -1.0960788143562977e-001
1.7720000000000000e+008 2.5015361385180224e-001 -1.3165009577159373e-001 -4.5357439003777023e-001 -8.4519920401173876e-001 -4.5357439003777089e-001 -8.4519920401173998e-001 2.4799174145512737e-001 -1.3567857019382124e-001
1.7760000000000000e+008 2.5618043894544801e-001 -1.6168262741320377e-001 -5.1532713535176256e-001 -8.0166592435042783e-001 -5.1532713535176311e-001 -8.0166592435042872e-001 2.5345548229198067e-001 -1.6592169177554467e-001
1.7800000000000000e+008 2.5903409883126965e-001 -1.9280680565438230e-001 -5.7227323244595674e-001 -7.5381046607345592e-001 -5.7227323244595707e-001 -7.5381046607345636e-001 2.5533044758995260e-001 -1.9768533379461706e-001
1.7840000000000000e+008 2.5836870156289415e-001 -2.2486061605912711e-001 -6.2440379877357399e-001 -7.0199943979703072e-001 -6.2440379877357310e-001 -7.0199943979703006e-001 2.5345320995091325e-001 -2.3038696353605703e-001
1.7880000000000000e+008 2.5405831813208646e-001 -2.5753760381135693e-001 -6.7153985407070405e-001 -6.4665522344267723e-001 -6.7153985407070294e-001 -6.4665522344267656e-001 2.4776540103294720e-001 -2.6359733010784236e-001
1.7920000000000000e+008 2.4604172993930118e-001 -2.9050004165282717e-001 -7.1348880433306883e-001 -5.8822352810776624e-001 -7.1348880433306983e-001 -5.8822352810776724e-001 2.3824983031236213e-001 -2.9692393879232615e-001
1.7960000000000000e+008 2.3429399198731216e-001 -3.2339888271329897e-001 -7.5007579725883888e-001 -5.2716770229686416e-001 -7.5007579725883955e-001 -5.2716770229686483e-001 2.2491882963750531e-001 -3.2998792719742931e-001
1.8000000000000000e+008 2.1881966196488900e-001 -3.5587888713225091e-001 -7.8115494083389336e-001 -4.6396673549068046e-001 -7.8115494083389403e-001 -4.6396673549067957e-001 2.0781191828060219e-001 -3.6241693308874767e-001
1.8040000000000000e+008 1.9965199262536970e-001 -3.8758061448051961e-001 -8.0661565006896652e-001 -3.9911344525516768e-001 -8.0661565006896652e-001 -3.9911344525515347e-001 1.8699626812669834e-001 -3.9384266730137085e-001
1.8080000000000000e+008 1.7685427824359357e-001 -4.1814206417793365e-001 -8.2638742955523314e-001 -3.3311198523176877e-001 -8.2638742955523248e-001 -3.3311198523176788e-001 1.6256827010501063e-001 -4.2390067129353604e-001
1.8120000000000000e+008 1.5052202489468280e-001 -4.4720083466024407e-001 -8.4044388397913750e-001 -2.6647441037151598e-001 -8.4044388397913772e-001 -2.6647441037151598e-001 1.3465550455640540e-001 -4.5223153537969241e-001
1.8160000000000000e+008 1.2078528694748325e-001 -4.7439710361941789e-001 -8.4880605858777836e-001 -1.9971624230192631e-001 -8.4880605858777858e-001 -1.9971624230192675e-001 1.0341869038372631e-001 -4.7848330372625747e-001
1.8200000000000000e+008 8.7810736295907688e-002 -4.9937750034060335e-001 -8.5154499252632432e-001 -1.3335108716498945e-001 -8.5154499252632299e-001 -1.3335108716498945e-001 6.9053283305257146e-002 -5.0231489856465794e-001
1.8240000000000000e+008 5.1803128345894844e-002 -5.2179981207691839e-001 -8.4878330277377301e-001 -6.7884438146872284e-002 -8.4878330277377367e-001 -6.7884438146872172e-002 3.1790444613185989e-002 -5.2340039703961294e-001
1.8280000000000000e+008 1.3005892806596211e-002 -5.4133837538006457e-001 -8.4069561548617555e-001 -3.8068616334923089e-003 -8.4069561548617466e-001 -3.8068616334920868e-003 -8.1028525293446556e-003 -5.4143396059696136e-001
1.8320000000000000e+008 -2.8299361303020777e-002 -5.5768993264932309e-001 -8.2750769528618862e-001 5.8413178423848855e-002 -8.2750769528618717e-001 5.8413178423848633e-002 -5.0324759229467900e-002 -5.5613517550777303e-001
1.8360000000000000e+008 -7.1794568208920606e-002 -5.7057968082193755e-001 -8.0949417915404576e-001 1.1833656123340763e-001 -8.0949417915404565e-001 1.1833656123340741e-001 -9.4540645664041023e-002 -5.6725452709396340e-001
1.8400000000000000e+008 -1.1712821942756221e-001 -5.7976720480717647e-001 -7.8697489261426790e-001 1.7556049338778557e-001 -7.8697489261426889e-001 1.7556049338778568e-001 -1.4038639735217803e-001 -5.7457870739758021e-001
1.8440000000000000e+008 -1.6391964914631524e-001 -5.8505197561942579e-001 -7.6030980520230629e-001 2.2972491062309081e-001 -7.6030980520230607e-001 2.2972491062309075e-001 -1.8747287653929703e-001 -5.7793545151212666e-001
1.8480000000000000e+008 -2.1176448577452248e-001 -5.8627810397047708e-001 -7.2989276274921644e-001 2.8051798918384918e-001 -7.2989276274921677e-001 2.8051798918384918e-001 -2.3539143300785081e-001 -5.7719761425102600e-001
1.8520000000000000e+008 -2.6024108515163075e-001 -5.8333807425559137e-001 -6.9614420860615911e-001 3.2768049918630393e-001 -6.9614420860615811e-001 3.2768049918630349e-001 -2.8372027563305002e-001 -5.7228623648645105e-001
1.8560000000000000e+008 -3.0891769394651963e-001 -5.7617523902584589e-001 -6.5950316764842187e-001 3.7100879256693031e-001 -6.5950316764842154e-001 3.7100879256693009e-001 -3.3203145571352161e-001 -5.6317240709793870e-001
1.8600000000000000e+008 -3.5736004308031782e-001 -5.6478492550433468e-001 -6.2041880995988596e-001 4.1035629370177196e-001 -6.2041880995988641e-001 4.1035629370177251e-001 -3.7989817090023686e-001 -5.4987779752773935e-001
1.8640000000000000e+008 -4.0513904463868650e-001 -5.4921408690981321e-001 -5.7934193152434854e-001 4.4563344536368643e-001 -5.7934193152434821e-001 4.4563344536368610e-001 -4.2690207799562285e-001 -5.3247382522894660e-001
1.8680000000000000e+008 -4.5183826339527527e-001 -5.2955951451809469e-001 -5.3671668533932593e-001 4.7680614928256526e-001 -5.3671668533932670e-001 4.7680614928256582e-001 -4.7264030522965123e-001 -5.1107948262195024e-001
1.8720000000000000e+008 -4.9706085473922385e-001 -5.0596470327877441e-001 -4.9297286878448499e-001 5.0389282229887677e-001 -4.9297286878448660e-001 5.0389282229887844e-001 -5.1673187850328484e-001 -4.8585794221822942e-001
1.8760000000000000e+008 -5.4043570079244829e-001 -4.7861552626076442e-001 -4.4851902447026509e-001 5.2696026037961374e-001 -4.4851902447026348e-001 5.2696026037961174e-001 -5.5882331766714433e-001 -4.5701210957739269e-001
1.8800000000000000e+008 -5.8162252956991978e-001 -4.4773491302413870e-001 -4.0373654584630064e-001 5.4611856066613429e-001 -4.0373654584630264e-001 5.4611856066613695e-001 -5.9859321195437010e-001 -4.2477933782870814e-001
1.8840000000000000e+008 -6.2031585914463117e-001 -4.1357673415528184e-001 -3.5897489843803776e-001 5.6151539796385541e-001 -3.5897489843803998e-001 5.6151539796385896e-001 -6.3575563937401425e-001 -3.8942553478814051e-001
1.8880000000000000e+008 -6.5624765615609659e-001 -3.7641905052263769e-001 -3.1454797084154784e-001 5.7332999767387904e-001 -3.1454797084154784e-001 5.7332999767387904e-001 -6.7006233969691709e-001 -3.5123887701481460e-001
1.8920000000000000e+008 -6.8918860898445611e-001 -3.3655674514419348e-001 -2.7073143937909760e-001 5.8176722688351790e-001 -2.7073143937909783e-001 5.8176722688351845e-001 -7.0130355797728150e-001 -3.1052326969872751e-001
1.8960000000000000e+008 -7.1894781857349910e-001 -2.9429317244712677e-001 -2.2776079771982938e-001 5.8705245237665082e-001 -2.2776079771982929e-001 5.8705245237665071e-001 -7.2930737159363901e-001 -2.6759147019246521e-001
1.9000000000000000e+008 -7.4537023973397776e-001 -2.4992928155700064e-001 -1.8582908825041838e-001 5.8942863003024581e-001 -1.8582908825041822e-001 5.8942863003024526e-001 -7.5393682172135812e-001 -2.2275706254434077e-001
1.9040000000000000e+008 -7.6832903869116176e-001 -2.0374398288451157e-001 -1.4508096257623637e-001 5.8916075229110731e-001 -1.4508096257623640e-001 5.8916075229110754e-001 -7.7508188272473566e-001 -1.7632129006336214e-001
1.9080000000000000e+008 -7.8769592415345535e-001 -1.5593092518330848e-001 -1.0558464704780830e-001 5.8657698552815796e-001 -1.0558464704780837e-001 5.8657698552815829e-001 -7.9262820924599031e-001 -1.2852954626848898e-001
1.9120000000000000e+008 -8.0304263313762880e-001 -1.0600795536893709e-001 -6.7021380436286970e-002 5.8257443930050368e-001 -6.7021380436286859e-002 5.8257443930050257e-001 -8.0613619863017949e-001 -7.9117548598289386e-002
1.9160000000000000e+008 -8.1734791855887634e-001 -5.9999241666885833e-002 -3.2577554607455546e-002 5.7208493596901300e-001 -3.2577554607455525e-002 5.7208493596901266e-001 -8.1887537624148621e-001 -3.3176002750381732e-002
1.9200000000000000e+008 -8.2493424662990911e-001 -6.6257164099370368e-003 3.7671210040534312e-003 5.6517731502471014e-001 3.7671210040534286e-003 5.6517731502470980e-001 -8.2477262882336844e-001 1.7621637965599065e-002
1.9240000000000000e+008 -8.2672441582751077e-001 5.6616804556671757e-002 4.1819885906904108e-002 5.5818668459502563e-001 4.1819885906904046e-002 5.5818668459502496e-001 -8.2593138035950475e-001 6.7201765013951531e-002
1.9280000000000000e+008 -8.3647381071900073e-001 7.6530842006765729e-002 6.2658869726380906e-002 5.3900692040787512e-001 6.2658869726380809e-002 5.3900692040787423e-001 -8.3172340829259495e-001 1.1739496537407640e-001
1.9320000000000000e+008 -8.3336565589462719e-001 1.3340594087739341e-001 9.5294958830146076e-002 5.2784790360055023e-001 9.5294958830146159e-002 5.2784790360055067e-001 -8.2740526080979993e-001 1.6642114009443548e-001
1.9360000000000000e+008 -8.2837369755014734e-001 1.8415820180675313e-001 1.2442153801499593e-001 5.1420040333743722e-001 1.2442153801499586e-001 5.1420040333743700e-001 -8.2092901042756461e-001 2.1492507048741316e-001
1.9400000000000000e+008 -8.2047530724800044e-001 2.3324887877772971e-001 1.5173966112456000e-001 4.9938993380627505e-001 1.5173966112455961e-001 4.9938993380627389e-001 -8.1154466531831715e-001 2.6264048706958609e-001
1.9440000000000000e+008 -8.0962711721013336e-001 2.8112027945028462e-001 1.7752912811639202e-001 4.8369280357478628e-001 1.7752912811639188e-001 4.8369280357478595e-001 -7.9925318260126033e-001 3.0938492293897191e-001
1.9480000000000000e+008 -7.9589769444767478e-001 3.2781717437502578e-001 2.0192035382757845e-001 4.6723755292976527e-001 2.0192035382757845e-001 4.6723755292976521e-001 -7.8414570946650086e-001 3.5501090992760753e-001
1.9520000000000000e+008 -7.7936001546467881e-001 3.7348939250106661e-001 2.2501694007125445e-001 4.4996779514210766e-001 2.2501694007125406e-001 4.4996779514210694e-001 -7.6636059338340901e-001 3.9948441887631780e-001
